2025-08-30 07:58:06.466 WARNING (SyncWorker_0) [homeassistant.loader] We found a custom integration modbushas which has not been tested by Home Assistant. This component might cause stability problems, be sure to disable it if you experience issues with Home Assistant
2025-08-30 07:58:09.397 DEBUG (MainThread) [pymodbus.logging] Connecting to 192.168.100.3:502.
2025-08-30 07:58:09.397 DEBUG (MainThread) [pymodbus.logging] Connecting comm
2025-08-30 07:58:09.413 DEBUG (MainThread) [pymodbus.logging] Connected to comm
2025-08-30 07:58:09.440 WARNING (ImportExecutor_0) [py.warnings] /usr/local/lib/python3.13/site-packages/google/__init__.py:2: UserWarning: pkg_resources is deprecated as an API. See https://setuptools.pypa.io/en/latest/pkg_resources.html. The pkg_resources package is slated for removal as early as 2025-11-30. Refrain from using this package or pin to Setuptools<81.
  __import__('pkg_resources').declare_namespace(__name__)

2025-08-30 07:58:09.514 INFO (MainThread) [homeassistant.components.modbus.modbus] modbus fatek communication open
2025-08-30 07:58:09.986 DEBUG (MainThread) [pymodbus.logging] send: 0x0 0x1 0x0 0x0 0x0 0x6 0x1 0x1 0x0 0x48 0x0 0x1
2025-08-30 07:58:10.033 DEBUG (MainThread) [pymodbus.logging] recv: 0x0 0x1 0x0 0x0 0x0 0x4 0x1 0x1 0x1 0x0 old_data:  addr=None
2025-08-30 07:58:10.034 DEBUG (MainThread) [pymodbus.logging] Processing: 0x0 0x1 0x0 0x0 0x0 0x4 0x1 0x1 0x1 0x0
2025-08-30 07:58:10.034 DEBUG (MainThread) [pymodbus.logging] decoded PDU function_code(1 sub -1) -> ReadCoilsResponse(dev_id=0, transaction_id=0, address=0, count=0, bits=[False, False, False, False, False, False, False, False], registers=[], status=1) 
2025-08-30 07:58:10.034 DEBUG (MainThread) [pymodbus.logging] Frame advanced, resetting header!!
2025-08-30 07:58:15.996 WARNING (ImportExecutor_0) [py.warnings] /usr/local/lib/python3.13/site-packages/miio/miot_device.py:23: FutureWarning: functools.partial will be a method descriptor in future Python versions; wrap it in enum.member() if you want to preserve the old behavior
  Bool = partial(_str2bool)

2025-08-30 07:58:39.949 WARNING (zeroconf-ServiceBrowser-_googlecast._tcp-120) [pychromecast.dial] Failed to determine cast type for host <unknown> (<urlopen error _ssl.c:1011: The handshake operation timed out>) (services:{MDNSServiceInfo(name='Onkyo-CR-N575D-fba99a3cd68ef98806a817903544d91a._googlecast._tcp.local.')})
2025-08-30 07:59:09.886 DEBUG (MainThread) [pymodbus.logging] send: 0x0 0x2 0x0 0x0 0x0 0x6 0x1 0x1 0x0 0x48 0x0 0x1
2025-08-30 07:59:09.931 DEBUG (MainThread) [pymodbus.logging] recv: 0x0 0x2 0x0 0x0 0x0 0x4 0x1 0x1 0x1 0x0 old_data:  addr=None
2025-08-30 07:59:09.931 DEBUG (MainThread) [pymodbus.logging] Processing: 0x0 0x2 0x0 0x0 0x0 0x4 0x1 0x1 0x1 0x0
2025-08-30 07:59:09.931 DEBUG (MainThread) [pymodbus.logging] decoded PDU function_code(1 sub -1) -> ReadCoilsResponse(dev_id=0, transaction_id=0, address=0, count=0, bits=[False, False, False, False, False, False, False, False], registers=[], status=1) 
2025-08-30 07:59:09.931 DEBUG (MainThread) [pymodbus.logging] Frame advanced, resetting header!!
2025-08-30 08:00:09.886 DEBUG (MainThread) [pymodbus.logging] send: 0x0 0x3 0x0 0x0 0x0 0x6 0x1 0x1 0x0 0x48 0x0 0x1
2025-08-30 08:00:09.928 DEBUG (MainThread) [pymodbus.logging] recv: 0x0 0x3 0x0 0x0 0x0 0x4 0x1 0x1 0x1 0x0 old_data:  addr=None
2025-08-30 08:00:09.928 DEBUG (MainThread) [pymodbus.logging] Processing: 0x0 0x3 0x0 0x0 0x0 0x4 0x1 0x1 0x1 0x0
2025-08-30 08:00:09.929 DEBUG (MainThread) [pymodbus.logging] decoded PDU function_code(1 sub -1) -> ReadCoilsResponse(dev_id=0, transaction_id=0, address=0, count=0, bits=[False, False, False, False, False, False, False, False], registers=[], status=1) 
2025-08-30 08:00:09.929 DEBUG (MainThread) [pymodbus.logging] Frame advanced, resetting header!!
2025-08-30 08:01:09.887 DEBUG (MainThread) [pymodbus.logging] send: 0x0 0x4 0x0 0x0 0x0 0x6 0x1 0x1 0x0 0x48 0x0 0x1
2025-08-30 08:01:09.915 DEBUG (MainThread) [pymodbus.logging] recv: 0x0 0x4 0x0 0x0 0x0 0x4 0x1 0x1 0x1 0x0 old_data:  addr=None
2025-08-30 08:01:09.915 DEBUG (MainThread) [pymodbus.logging] Processing: 0x0 0x4 0x0 0x0 0x0 0x4 0x1 0x1 0x1 0x0
2025-08-30 08:01:09.915 DEBUG (MainThread) [pymodbus.logging] decoded PDU function_code(1 sub -1) -> ReadCoilsResponse(dev_id=0, transaction_id=0, address=0, count=0, bits=[False, False, False, False, False, False, False, False], registers=[], status=1) 
2025-08-30 08:01:09.915 DEBUG (MainThread) [pymodbus.logging] Frame advanced, resetting header!!
2025-08-30 08:02:09.887 DEBUG (MainThread) [pymodbus.logging] send: 0x0 0x5 0x0 0x0 0x0 0x6 0x1 0x1 0x0 0x48 0x0 0x1
2025-08-30 08:02:09.932 DEBUG (MainThread) [pymodbus.logging] recv: 0x0 0x5 0x0 0x0 0x0 0x4 0x1 0x1 0x1 0x0 old_data:  addr=None
2025-08-30 08:02:09.932 DEBUG (MainThread) [pymodbus.logging] Processing: 0x0 0x5 0x0 0x0 0x0 0x4 0x1 0x1 0x1 0x0
2025-08-30 08:02:09.932 DEBUG (MainThread) [pymodbus.logging] decoded PDU function_code(1 sub -1) -> ReadCoilsResponse(dev_id=0, transaction_id=0, address=0, count=0, bits=[False, False, False, False, False, False, False, False], registers=[], status=1) 
2025-08-30 08:02:09.932 DEBUG (MainThread) [pymodbus.logging] Frame advanced, resetting header!!
2025-08-30 08:03:09.888 DEBUG (MainThread) [pymodbus.logging] send: 0x0 0x6 0x0 0x0 0x0 0x6 0x1 0x1 0x0 0x48 0x0 0x1
2025-08-30 08:03:09.920 DEBUG (MainThread) [pymodbus.logging] recv: 0x0 0x6 0x0 0x0 0x0 0x4 0x1 0x1 0x1 0x0 old_data:  addr=None
2025-08-30 08:03:09.920 DEBUG (MainThread) [pymodbus.logging] Processing: 0x0 0x6 0x0 0x0 0x0 0x4 0x1 0x1 0x1 0x0
2025-08-30 08:03:09.920 DEBUG (MainThread) [pymodbus.logging] decoded PDU function_code(1 sub -1) -> ReadCoilsResponse(dev_id=0, transaction_id=0, address=0, count=0, bits=[False, False, False, False, False, False, False, False], registers=[], status=1) 
2025-08-30 08:03:09.920 DEBUG (MainThread) [pymodbus.logging] Frame advanced, resetting header!!
2025-08-30 08:04:09.890 DEBUG (MainThread) [pymodbus.logging] send: 0x0 0x7 0x0 0x0 0x0 0x6 0x1 0x1 0x0 0x48 0x0 0x1
2025-08-30 08:04:09.926 DEBUG (MainThread) [pymodbus.logging] recv: 0x0 0x7 0x0 0x0 0x0 0x4 0x1 0x1 0x1 0x0 old_data:  addr=None
2025-08-30 08:04:09.926 DEBUG (MainThread) [pymodbus.logging] Processing: 0x0 0x7 0x0 0x0 0x0 0x4 0x1 0x1 0x1 0x0
2025-08-30 08:04:09.926 DEBUG (MainThread) [pymodbus.logging] decoded PDU function_code(1 sub -1) -> ReadCoilsResponse(dev_id=0, transaction_id=0, address=0, count=0, bits=[False, False, False, False, False, False, False, False], registers=[], status=1) 
2025-08-30 08:04:09.926 DEBUG (MainThread) [pymodbus.logging] Frame advanced, resetting header!!
2025-08-30 08:05:09.890 DEBUG (MainThread) [pymodbus.logging] send: 0x0 0x8 0x0 0x0 0x0 0x6 0x1 0x1 0x0 0x48 0x0 0x1
2025-08-30 08:05:09.924 DEBUG (MainThread) [pymodbus.logging] recv: 0x0 0x8 0x0 0x0 0x0 0x4 0x1 0x1 0x1 0x0 old_data:  addr=None
2025-08-30 08:05:09.924 DEBUG (MainThread) [pymodbus.logging] Processing: 0x0 0x8 0x0 0x0 0x0 0x4 0x1 0x1 0x1 0x0
2025-08-30 08:05:09.924 DEBUG (MainThread) [pymodbus.logging] decoded PDU function_code(1 sub -1) -> ReadCoilsResponse(dev_id=0, transaction_id=0, address=0, count=0, bits=[False, False, False, False, False, False, False, False], registers=[], status=1) 
2025-08-30 08:05:09.924 DEBUG (MainThread) [pymodbus.logging] Frame advanced, resetting header!!
2025-08-30 08:06:09.891 DEBUG (MainThread) [pymodbus.logging] send: 0x0 0x9 0x0 0x0 0x0 0x6 0x1 0x1 0x0 0x48 0x0 0x1
2025-08-30 08:06:09.930 DEBUG (MainThread) [pymodbus.logging] recv: 0x0 0x9 0x0 0x0 0x0 0x4 0x1 0x1 0x1 0x0 old_data:  addr=None
2025-08-30 08:06:09.931 DEBUG (MainThread) [pymodbus.logging] Processing: 0x0 0x9 0x0 0x0 0x0 0x4 0x1 0x1 0x1 0x0
2025-08-30 08:06:09.931 DEBUG (MainThread) [pymodbus.logging] decoded PDU function_code(1 sub -1) -> ReadCoilsResponse(dev_id=0, transaction_id=0, address=0, count=0, bits=[False, False, False, False, False, False, False, False], registers=[], status=1) 
2025-08-30 08:06:09.931 DEBUG (MainThread) [pymodbus.logging] Frame advanced, resetting header!!
2025-08-30 08:07:09.892 DEBUG (MainThread) [pymodbus.logging] send: 0x0 0xa 0x0 0x0 0x0 0x6 0x1 0x1 0x0 0x48 0x0 0x1
2025-08-30 08:07:09.918 DEBUG (MainThread) [pymodbus.logging] recv: 0x0 0xa 0x0 0x0 0x0 0x4 0x1 0x1 0x1 0x0 old_data:  addr=None
2025-08-30 08:07:09.918 DEBUG (MainThread) [pymodbus.logging] Processing: 0x0 0xa 0x0 0x0 0x0 0x4 0x1 0x1 0x1 0x0
2025-08-30 08:07:09.918 DEBUG (MainThread) [pymodbus.logging] decoded PDU function_code(1 sub -1) -> ReadCoilsResponse(dev_id=0, transaction_id=0, address=0, count=0, bits=[False, False, False, False, False, False, False, False], registers=[], status=1) 
2025-08-30 08:07:09.918 DEBUG (MainThread) [pymodbus.logging] Frame advanced, resetting header!!
2025-08-30 08:08:09.893 DEBUG (MainThread) [pymodbus.logging] send: 0x0 0xb 0x0 0x0 0x0 0x6 0x1 0x1 0x0 0x48 0x0 0x1
2025-08-30 08:08:09.935 DEBUG (MainThread) [pymodbus.logging] recv: 0x0 0xb 0x0 0x0 0x0 0x4 0x1 0x1 0x1 0x0 old_data:  addr=None
2025-08-30 08:08:09.935 DEBUG (MainThread) [pymodbus.logging] Processing: 0x0 0xb 0x0 0x0 0x0 0x4 0x1 0x1 0x1 0x0
2025-08-30 08:08:09.935 DEBUG (MainThread) [pymodbus.logging] decoded PDU function_code(1 sub -1) -> ReadCoilsResponse(dev_id=0, transaction_id=0, address=0, count=0, bits=[False, False, False, False, False, False, False, False], registers=[], status=1) 
2025-08-30 08:08:09.935 DEBUG (MainThread) [pymodbus.logging] Frame advanced, resetting header!!
2025-08-30 08:09:09.894 DEBUG (MainThread) [pymodbus.logging] send: 0x0 0xc 0x0 0x0 0x0 0x6 0x1 0x1 0x0 0x48 0x0 0x1
2025-08-30 08:09:09.922 DEBUG (MainThread) [pymodbus.logging] recv: 0x0 0xc 0x0 0x0 0x0 0x4 0x1 0x1 0x1 0x0 old_data:  addr=None
2025-08-30 08:09:09.922 DEBUG (MainThread) [pymodbus.logging] Processing: 0x0 0xc 0x0 0x0 0x0 0x4 0x1 0x1 0x1 0x0
2025-08-30 08:09:09.922 DEBUG (MainThread) [pymodbus.logging] decoded PDU function_code(1 sub -1) -> ReadCoilsResponse(dev_id=0, transaction_id=0, address=0, count=0, bits=[False, False, False, False, False, False, False, False], registers=[], status=1) 
2025-08-30 08:09:09.923 DEBUG (MainThread) [pymodbus.logging] Frame advanced, resetting header!!
2025-08-30 08:10:09.895 DEBUG (MainThread) [pymodbus.logging] send: 0x0 0xd 0x0 0x0 0x0 0x6 0x1 0x1 0x0 0x48 0x0 0x1
2025-08-30 08:10:09.939 DEBUG (MainThread) [pymodbus.logging] recv: 0x0 0xd 0x0 0x0 0x0 0x4 0x1 0x1 0x1 0x0 old_data:  addr=None
2025-08-30 08:10:09.939 DEBUG (MainThread) [pymodbus.logging] Processing: 0x0 0xd 0x0 0x0 0x0 0x4 0x1 0x1 0x1 0x0
2025-08-30 08:10:09.939 DEBUG (MainThread) [pymodbus.logging] decoded PDU function_code(1 sub -1) -> ReadCoilsResponse(dev_id=0, transaction_id=0, address=0, count=0, bits=[False, False, False, False, False, False, False, False], registers=[], status=1) 
2025-08-30 08:10:09.939 DEBUG (MainThread) [pymodbus.logging] Frame advanced, resetting header!!
2025-08-30 08:11:09.896 DEBUG (MainThread) [pymodbus.logging] send: 0x0 0xe 0x0 0x0 0x0 0x6 0x1 0x1 0x0 0x48 0x0 0x1
2025-08-30 08:11:09.927 DEBUG (MainThread) [pymodbus.logging] recv: 0x0 0xe 0x0 0x0 0x0 0x4 0x1 0x1 0x1 0x0 old_data:  addr=None
2025-08-30 08:11:09.927 DEBUG (MainThread) [pymodbus.logging] Processing: 0x0 0xe 0x0 0x0 0x0 0x4 0x1 0x1 0x1 0x0
2025-08-30 08:11:09.927 DEBUG (MainThread) [pymodbus.logging] decoded PDU function_code(1 sub -1) -> ReadCoilsResponse(dev_id=0, transaction_id=0, address=0, count=0, bits=[False, False, False, False, False, False, False, False], registers=[], status=1) 
2025-08-30 08:11:09.927 DEBUG (MainThread) [pymodbus.logging] Frame advanced, resetting header!!
2025-08-30 08:12:09.896 DEBUG (MainThread) [pymodbus.logging] send: 0x0 0xf 0x0 0x0 0x0 0x6 0x1 0x1 0x0 0x48 0x0 0x1
2025-08-30 08:12:09.934 DEBUG (MainThread) [pymodbus.logging] recv: 0x0 0xf 0x0 0x0 0x0 0x4 0x1 0x1 0x1 0x0 old_data:  addr=None
2025-08-30 08:12:09.934 DEBUG (MainThread) [pymodbus.logging] Processing: 0x0 0xf 0x0 0x0 0x0 0x4 0x1 0x1 0x1 0x0
2025-08-30 08:12:09.934 DEBUG (MainThread) [pymodbus.logging] decoded PDU function_code(1 sub -1) -> ReadCoilsResponse(dev_id=0, transaction_id=0, address=0, count=0, bits=[False, False, False, False, False, False, False, False], registers=[], status=1) 
2025-08-30 08:12:09.934 DEBUG (MainThread) [pymodbus.logging] Frame advanced, resetting header!!
2025-08-30 08:13:09.897 DEBUG (MainThread) [pymodbus.logging] send: 0x0 0x10 0x0 0x0 0x0 0x6 0x1 0x1 0x0 0x48 0x0 0x1
2025-08-30 08:13:09.931 DEBUG (MainThread) [pymodbus.logging] recv: 0x0 0x10 0x0 0x0 0x0 0x4 0x1 0x1 0x1 0x0 old_data:  addr=None
2025-08-30 08:13:09.931 DEBUG (MainThread) [pymodbus.logging] Processing: 0x0 0x10 0x0 0x0 0x0 0x4 0x1 0x1 0x1 0x0
2025-08-30 08:13:09.931 DEBUG (MainThread) [pymodbus.logging] decoded PDU function_code(1 sub -1) -> ReadCoilsResponse(dev_id=0, transaction_id=0, address=0, count=0, bits=[False, False, False, False, False, False, False, False], registers=[], status=1) 
2025-08-30 08:13:09.931 DEBUG (MainThread) [pymodbus.logging] Frame advanced, resetting header!!
2025-08-30 08:14:09.897 DEBUG (MainThread) [pymodbus.logging] send: 0x0 0x11 0x0 0x0 0x0 0x6 0x1 0x1 0x0 0x48 0x0 0x1
2025-08-30 08:14:09.938 DEBUG (MainThread) [pymodbus.logging] recv: 0x0 0x11 0x0 0x0 0x0 0x4 0x1 0x1 0x1 0x0 old_data:  addr=None
2025-08-30 08:14:09.938 DEBUG (MainThread) [pymodbus.logging] Processing: 0x0 0x11 0x0 0x0 0x0 0x4 0x1 0x1 0x1 0x0
2025-08-30 08:14:09.938 DEBUG (MainThread) [pymodbus.logging] decoded PDU function_code(1 sub -1) -> ReadCoilsResponse(dev_id=0, transaction_id=0, address=0, count=0, bits=[False, False, False, False, False, False, False, False], registers=[], status=1) 
2025-08-30 08:14:09.938 DEBUG (MainThread) [pymodbus.logging] Frame advanced, resetting header!!
2025-08-30 08:15:09.898 DEBUG (MainThread) [pymodbus.logging] send: 0x0 0x12 0x0 0x0 0x0 0x6 0x1 0x1 0x0 0x48 0x0 0x1
2025-08-30 08:15:09.926 DEBUG (MainThread) [pymodbus.logging] recv: 0x0 0x12 0x0 0x0 0x0 0x4 0x1 0x1 0x1 0x0 old_data:  addr=None
2025-08-30 08:15:09.926 DEBUG (MainThread) [pymodbus.logging] Processing: 0x0 0x12 0x0 0x0 0x0 0x4 0x1 0x1 0x1 0x0
2025-08-30 08:15:09.926 DEBUG (MainThread) [pymodbus.logging] decoded PDU function_code(1 sub -1) -> ReadCoilsResponse(dev_id=0, transaction_id=0, address=0, count=0, bits=[False, False, False, False, False, False, False, False], registers=[], status=1) 
2025-08-30 08:15:09.926 DEBUG (MainThread) [pymodbus.logging] Frame advanced, resetting header!!
2025-08-30 08:16:09.899 DEBUG (MainThread) [pymodbus.logging] send: 0x0 0x13 0x0 0x0 0x0 0x6 0x1 0x1 0x0 0x48 0x0 0x1
2025-08-30 08:16:09.943 DEBUG (MainThread) [pymodbus.logging] recv: 0x0 0x13 0x0 0x0 0x0 0x4 0x1 0x1 0x1 0x0 old_data:  addr=None
2025-08-30 08:16:09.943 DEBUG (MainThread) [pymodbus.logging] Processing: 0x0 0x13 0x0 0x0 0x0 0x4 0x1 0x1 0x1 0x0
2025-08-30 08:16:09.943 DEBUG (MainThread) [pymodbus.logging] decoded PDU function_code(1 sub -1) -> ReadCoilsResponse(dev_id=0, transaction_id=0, address=0, count=0, bits=[False, False, False, False, False, False, False, False], registers=[], status=1) 
2025-08-30 08:16:09.943 DEBUG (MainThread) [pymodbus.logging] Frame advanced, resetting header!!
2025-08-30 08:17:09.899 DEBUG (MainThread) [pymodbus.logging] send: 0x0 0x14 0x0 0x0 0x0 0x6 0x1 0x1 0x0 0x48 0x0 0x1
2025-08-30 08:17:09.930 DEBUG (MainThread) [pymodbus.logging] recv: 0x0 0x14 0x0 0x0 0x0 0x4 0x1 0x1 0x1 0x0 old_data:  addr=None
2025-08-30 08:17:09.930 DEBUG (MainThread) [pymodbus.logging] Processing: 0x0 0x14 0x0 0x0 0x0 0x4 0x1 0x1 0x1 0x0
2025-08-30 08:17:09.930 DEBUG (MainThread) [pymodbus.logging] decoded PDU function_code(1 sub -1) -> ReadCoilsResponse(dev_id=0, transaction_id=0, address=0, count=0, bits=[False, False, False, False, False, False, False, False], registers=[], status=1) 
2025-08-30 08:17:09.930 DEBUG (MainThread) [pymodbus.logging] Frame advanced, resetting header!!
2025-08-30 08:18:09.901 DEBUG (MainThread) [pymodbus.logging] send: 0x0 0x15 0x0 0x0 0x0 0x6 0x1 0x1 0x0 0x48 0x0 0x1
2025-08-30 08:18:09.947 DEBUG (MainThread) [pymodbus.logging] recv: 0x0 0x15 0x0 0x0 0x0 0x4 0x1 0x1 0x1 0x0 old_data:  addr=None
2025-08-30 08:18:09.947 DEBUG (MainThread) [pymodbus.logging] Processing: 0x0 0x15 0x0 0x0 0x0 0x4 0x1 0x1 0x1 0x0
2025-08-30 08:18:09.947 DEBUG (MainThread) [pymodbus.logging] decoded PDU function_code(1 sub -1) -> ReadCoilsResponse(dev_id=0, transaction_id=0, address=0, count=0, bits=[False, False, False, False, False, False, False, False], registers=[], status=1) 
2025-08-30 08:18:09.947 DEBUG (MainThread) [pymodbus.logging] Frame advanced, resetting header!!
2025-08-30 08:19:09.902 DEBUG (MainThread) [pymodbus.logging] send: 0x0 0x16 0x0 0x0 0x0 0x6 0x1 0x1 0x0 0x48 0x0 0x1
2025-08-30 08:19:09.934 DEBUG (MainThread) [pymodbus.logging] recv: 0x0 0x16 0x0 0x0 0x0 0x4 0x1 0x1 0x1 0x0 old_data:  addr=None
2025-08-30 08:19:09.934 DEBUG (MainThread) [pymodbus.logging] Processing: 0x0 0x16 0x0 0x0 0x0 0x4 0x1 0x1 0x1 0x0
2025-08-30 08:19:09.935 DEBUG (MainThread) [pymodbus.logging] decoded PDU function_code(1 sub -1) -> ReadCoilsResponse(dev_id=0, transaction_id=0, address=0, count=0, bits=[False, False, False, False, False, False, False, False], registers=[], status=1) 
2025-08-30 08:19:09.935 DEBUG (MainThread) [pymodbus.logging] Frame advanced, resetting header!!
2025-08-30 08:20:09.903 DEBUG (MainThread) [pymodbus.logging] send: 0x0 0x17 0x0 0x0 0x0 0x6 0x1 0x1 0x0 0x48 0x0 0x1
2025-08-30 08:20:09.941 DEBUG (MainThread) [pymodbus.logging] recv: 0x0 0x17 0x0 0x0 0x0 0x4 0x1 0x1 0x1 0x0 old_data:  addr=None
2025-08-30 08:20:09.941 DEBUG (MainThread) [pymodbus.logging] Processing: 0x0 0x17 0x0 0x0 0x0 0x4 0x1 0x1 0x1 0x0
2025-08-30 08:20:09.941 DEBUG (MainThread) [pymodbus.logging] decoded PDU function_code(1 sub -1) -> ReadCoilsResponse(dev_id=0, transaction_id=0, address=0, count=0, bits=[False, False, False, False, False, False, False, False], registers=[], status=1) 
2025-08-30 08:20:09.941 DEBUG (MainThread) [pymodbus.logging] Frame advanced, resetting header!!
2025-08-30 08:21:09.903 DEBUG (MainThread) [pymodbus.logging] send: 0x0 0x18 0x0 0x0 0x0 0x6 0x1 0x1 0x0 0x48 0x0 0x1
2025-08-30 08:21:09.938 DEBUG (MainThread) [pymodbus.logging] recv: 0x0 0x18 0x0 0x0 0x0 0x4 0x1 0x1 0x1 0x0 old_data:  addr=None
2025-08-30 08:21:09.938 DEBUG (MainThread) [pymodbus.logging] Processing: 0x0 0x18 0x0 0x0 0x0 0x4 0x1 0x1 0x1 0x0
2025-08-30 08:21:09.938 DEBUG (MainThread) [pymodbus.logging] decoded PDU function_code(1 sub -1) -> ReadCoilsResponse(dev_id=0, transaction_id=0, address=0, count=0, bits=[False, False, False, False, False, False, False, False], registers=[], status=1) 
2025-08-30 08:21:09.938 DEBUG (MainThread) [pymodbus.logging] Frame advanced, resetting header!!
2025-08-30 08:22:09.903 DEBUG (MainThread) [pymodbus.logging] send: 0x0 0x19 0x0 0x0 0x0 0x6 0x1 0x1 0x0 0x48 0x0 0x1
2025-08-30 08:22:09.946 DEBUG (MainThread) [pymodbus.logging] recv: 0x0 0x19 0x0 0x0 0x0 0x4 0x1 0x1 0x1 0x0 old_data:  addr=None
2025-08-30 08:22:09.946 DEBUG (MainThread) [pymodbus.logging] Processing: 0x0 0x19 0x0 0x0 0x0 0x4 0x1 0x1 0x1 0x0
2025-08-30 08:22:09.946 DEBUG (MainThread) [pymodbus.logging] decoded PDU function_code(1 sub -1) -> ReadCoilsResponse(dev_id=0, transaction_id=0, address=0, count=0, bits=[False, False, False, False, False, False, False, False], registers=[], status=1) 
2025-08-30 08:22:09.946 DEBUG (MainThread) [pymodbus.logging] Frame advanced, resetting header!!
2025-08-30 08:22:24.415 INFO (MainThread) [homeassistant.components.modbus.modbus] modbus fatek communication closed
